Time [s],Channel 1,Channel 2,Channel 3,Channel 4,Channel 5,Channel 6,Channel 7
0.000000000,0,0,0,0,0,0,0
1.120303500,0,0,0,0,0,0,1
1.120306100,0,0,1,0,0,0,1
1.120308700,0,0,1,0,1,0,1
1.120533700,0,0,1,0,0,0,1
1.120536300,0,0,1,0,1,0,1
1.237188800,0,0,1,0,0,0,1
1.237191400,0,0,1,0,1,0,1
1.237194700,0,0,1,0,0,0,1
1.237197300,0,0,1,0,1,0,1
1.237234500,0,0,1,0,0,0,1
1.237237100,0,0,1,0,1,0,1
1.237651600,0,0,1,0,0,0,1
1.237909200,0,0,1,0,0,0,0
1.238016100,1,0,1,0,0,0,0
1.399118500,1,0,1,0,0,0,1
1.399161900,1,0,1,1,0,0,1
1.420111000,1,0,1,0,0,0,1
1.420113500,1,0,1,1,0,0,1
1.420245000,1,0,1,0,0,0,1
1.420247500,1,0,1,1,0,0,1
1.441133600,1,0,1,0,0,0,1
1.441136300,1,0,1,0,0,0,0
1.441338700,1,0,1,0,0,0,1
1.441341200,1,0,1,0,0,1,1
1.443366900,1,0,1,0,0,0,1
1.443569500,1,0,1,0,0,0,0
1.444116700,0,0,1,0,0,0,0
1.445326500,0,0,0,0,0,0,0
1.445894600,0,0,0,0,0,0,1
1.445897100,0,0,1,0,0,0,1
1.445899700,0,0,1,0,1,0,1
1.446124700,0,0,1,0,0,0,1
1.446127400,0,0,1,0,1,0,1
1.562775100,0,0,1,0,0,0,1
1.562777700,0,0,1,0,1,0,1
1.562781000,0,0,1,0,0,0,1
1.562783700,0,0,1,0,1,0,1
1.562820800,0,0,1,0,0,0,1
1.562823500,0,0,1,0,1,0,1
1.563237900,0,0,1,0,0,0,1
1.563495500,0,0,1,0,0,0,0
1.563602500,1,0,1,0,0,0,0
1.724717700,1,0,1,0,0,0,1
1.724761100,1,0,1,1,0,0,1
1.745712200,1,0,1,0,0,0,1
1.745714700,1,0,1,1,0,0,1
1.745846200,1,0,1,0,0,0,1
1.745848700,1,0,1,1,0,0,1
1.766736900,1,0,1,0,0,0,1
1.766739500,1,0,1,0,0,0,0
1.766941900,1,0,1,0,0,0,1
1.766944500,1,0,1,0,0,1,1
1.768970100,1,0,1,0,0,0,1
1.769172800,1,0,1,0,0,0,0
1.769719900,0,0,1,0,0,0,0
1.770929700,0,0,0,0,0,0,0
1.771497800,0,0,0,0,0,0,1
1.771500400,0,0,1,0,0,0,1
1.771503000,0,0,1,0,1,0,1
1.771728000,0,0,1,0,0,0,1
1.771730600,0,0,1,0,1,0,1
1.888384700,0,0,1,0,0,0,1
1.888387400,0,0,1,0,1,0,1
1.888390600,0,0,1,0,0,0,1
1.888393300,0,0,1,0,1,0,1
1.888430400,0,0,1,0,0,0,1
1.888433100,0,0,1,0,1,0,1
1.888847500,0,0,1,0,0,0,1
1.889105200,0,0,1,0,0,0,0
1.889212100,1,0,1,0,0,0,0
2.050335900,1,0,1,0,0,0,1
2.050379300,1,0,1,1,0,0,1
2.071331100,1,0,1,0,0,0,1
2.071333600,1,0,1,1,0,0,1
2.071465100,1,0,1,0,0,0,1
2.071467600,1,0,1,1,0,0,1
2.092356400,1,0,1,0,0,0,1
2.092359000,1,0,1,0,0,0,0
2.092540800,1,0,1,0,0,0,1
2.092543300,1,0,1,0,0,1,1
2.094569000,1,0,1,0,0,0,1
2.094771700,1,0,1,0,0,0,0
2.095318800,0,0,1,0,0,0,0
2.096528600,0,0,0,0,0,0,0
2.097096700,0,0,0,0,0,0,1
2.097099300,0,0,1,0,0,0,1
2.097101900,0,0,1,0,1,0,1
2.097326900,0,0,1,0,0,0,1
2.097329500,0,0,1,0,1,0,1
2.213984000,0,0,1,0,0,0,1
2.213986600,0,0,1,0,1,0,1
2.213989900,0,0,1,0,0,0,1
2.213992500,0,0,1,0,1,0,1
2.214029700,0,0,1,0,0,0,1
2.214032300,0,0,1,0,1,0,1
2.214446700,0,0,1,0,0,0,1
2.214704400,0,0,1,0,0,0,0
2.214811300,1,0,1,0,0,0,0
2.375919400,1,0,1,0,0,0,1
2.375962800,1,0,1,1,0,0,1
2.396913500,1,0,1,0,0,0,1
2.396916000,1,0,1,1,0,0,1
2.397047400,1,0,1,0,0,0,1
2.397049900,1,0,1,1,0,0,1
2.417937600,1,0,1,0,0,0,1
2.417940200,1,0,1,0,0,0,0
2.418142600,1,0,1,0,0,0,1
2.418145100,1,0,1,0,0,1,1
2.420170800,1,0,1,0,0,0,1
2.420373500,1,0,1,0,0,0,0
2.420920600,0,0,1,0,0,0,0
2.422130400,0,0,0,0,0,0,0
2.422698500,0,0,0,0,0,0,1
2.422701100,0,0,1,0,0,0,1
2.422703700,0,0,1,0,1,0,1
2.422928700,0,0,1,0,0,0,1
2.422931300,0,0,1,0,1,0,1
2.539577200,0,0,1,0,0,0,1
2.539579800,0,0,1,0,1,0,1
2.539583100,0,0,1,0,0,0,1
2.539585700,0,0,1,0,1,0,1
2.539622900,0,0,1,0,0,0,1
2.539625500,0,0,1,0,1,0,1
2.540040000,0,0,1,0,0,0,1
2.540297600,0,0,1,0,0,0,0
2.540404600,1,0,1,0,0,0,0
2.701517000,1,0,1,0,0,0,1
2.701560500,1,0,1,1,0,0,1
2.722510300,1,0,1,0,0,0,1
2.722512900,1,0,1,1,0,0,1
2.722644300,1,0,1,0,0,0,1
2.722646800,1,0,1,1,0,0,1
2.743533700,1,0,1,0,0,0,1
2.743536300,1,0,1,0,0,0,0
2.743738800,1,0,1,0,0,0,1
2.743741300,1,0,1,0,0,1,1
2.745767000,1,0,1,0,0,0,1
2.745969600,1,0,1,0,0,0,0
2.746516800,0,0,1,0,0,0,0
2.747727200,0,0,0,0,0,0,0
2.748295300,0,0,0,0,0,0,1
2.748297900,0,0,1,0,0,0,1
2.748300500,0,0,1,0,1,0,1
2.748525500,0,0,1,0,0,0,1
2.748528100,0,0,1,0,1,0,1
2.865182000,0,0,1,0,0,0,1
2.865184700,0,0,1,0,1,0,1
2.865187900,0,0,1,0,0,0,1
2.865190600,0,0,1,0,1,0,1
2.865227700,0,0,1,0,0,0,1
2.865230400,0,0,1,0,1,0,1
2.865644800,0,0,1,0,0,0,1
2.865902500,0,0,1,0,0,0,0
2.866009400,1,0,1,0,0,0,0
9.794277300,1,0,0,0,0,0,0
9.794845400,1,0,0,0,0,0,1
9.794848000,1,0,1,0,0,0,1
9.794850600,1,0,1,0,1,0,1
9.795075600,1,0,1,0,0,0,1
9.795078200,1,0,1,0,1,0,1
9.911729800,1,0,1,0,0,0,1
9.911732500,1,0,1,0,1,0,1
9.911735700,1,0,1,0,0,0,1
9.911738400,1,0,1,0,1,0,1
9.911775500,1,0,1,0,0,0,1
9.911778200,1,0,1,0,1,0,1
9.912192600,1,0,1,0,0,0,1
9.912429600,1,0,1,0,0,0,0
10.073659800,1,0,1,0,0,0,1
10.073703200,1,0,1,1,0,0,1
10.094652200,1,0,1,0,0,0,1
10.094654700,1,0,1,1,0,0,1
10.094786100,1,0,1,0,0,0,1
10.094788700,1,0,1,1,0,0,1
10.115674700,1,0,1,0,0,0,1
10.115677300,1,0,1,0,0,0,0
10.115879700,1,0,1,0,0,0,1
10.115882200,1,0,1,0,0,1,1
10.117907900,1,0,1,0,0,0,1
10.118110600,1,0,1,0,0,0,0
10.118657700,0,0,1,0,0,0,0
10.119867500,0,0,0,0,0,0,0
10.120435600,0,0,0,0,0,0,1
10.120438200,0,0,1,0,0,0,1
10.120440800,0,0,1,0,1,0,1
10.120665800,0,0,1,0,0,0,1
10.120668400,0,0,1,0,1,0,1
10.237322900,0,0,1,0,0,0,1
10.237325500,0,0,1,0,1,0,1
10.237328800,0,0,1,0,0,0,1
10.237331400,0,0,1,0,1,0,1
10.237368600,0,0,1,0,0,0,1
10.237371200,0,0,1,0,1,0,1
10.237785700,0,0,1,0,0,0,1
10.238043300,0,0,1,0,0,0,0
10.238150200,1,0,1,0,0,0,0
10.399269200,1,0,1,0,0,0,1
10.399312600,1,0,1,1,0,0,1
10.420262300,1,0,1,0,0,0,1
10.420264800,1,0,1,1,0,0,1
10.420396200,1,0,1,0,0,0,1
10.420398800,1,0,1,1,0,0,1
10.441285500,1,0,1,0,0,0,1
10.441288100,1,0,1,0,0,0,0
10.441490500,1,0,1,0,0,0,1
10.441493000,1,0,1,0,0,1,1
10.443518700,1,0,1,0,0,0,1
10.443721400,1,0,1,0,0,0,0
10.444268500,0,0,1,0,0,0,0
10.445478300,0,0,0,0,0,0,0
10.446046400,0,0,0,0,0,0,1
10.446049000,0,0,1,0,0,0,1
10.446051600,0,0,1,0,1,0,1
10.446276600,0,0,1,0,0,0,1
10.446279200,0,0,1,0,1,0,1
10.562930700,0,0,1,0,0,0,1
10.562933300,0,0,1,0,1,0,1
10.562936600,0,0,1,0,0,0,1
10.562939200,0,0,1,0,1,0,1
10.562976400,0,0,1,0,0,0,1
10.562979000,0,0,1,0,1,0,1
10.563393500,0,0,1,0,0,0,1
10.563651100,0,0,1,0,0,0,0
10.563758000,1,0,1,0,0,0,0
10.724874300,1,0,1,0,0,0,1
10.724917700,1,0,1,1,0,0,1
10.745868400,1,0,1,0,0,0,1
10.745870900,1,0,1,1,0,0,1
10.746002400,1,0,1,0,0,0,1
10.746004900,1,0,1,1,0,0,1
10.766892700,1,0,1,0,0,0,1
10.766895300,1,0,1,0,0,0,0
10.767097700,1,0,1,0,0,0,1
10.767100200,1,0,1,0,0,1,1
10.769125900,1,0,1,0,0,0,1
10.769328600,1,0,1,0,0,0,0
10.769875700,0,0,1,0,0,0,0
10.771085500,0,0,0,0,0,0,0
10.771653600,0,0,0,0,0,0,1
10.771656200,0,0,1,0,0,0,1
10.771658800,0,0,1,0,1,0,1
10.771883800,0,0,1,0,0,0,1
10.771886400,0,0,1,0,1,0,1
10.888539100,0,0,1,0,0,0,1
10.888541700,0,0,1,0,1,0,1
10.888545000,0,0,1,0,0,0,1
10.888547700,0,0,1,0,1,0,1
10.888584800,0,0,1,0,0,0,1
10.888587400,0,0,1,0,1,0,1
10.889001900,0,0,1,0,0,0,1
10.889259600,0,0,1,0,0,0,0
10.889366500,1,0,1,0,0,0,0
11.050477900,1,0,1,0,0,0,1
11.050521300,1,0,1,1,0,0,1
11.071472200,1,0,1,0,0,0,1
11.071474800,1,0,1,1,0,0,1
11.071606200,1,0,1,0,0,0,1
11.071608700,1,0,1,1,0,0,1
11.092496700,1,0,1,0,0,0,1
11.092499300,1,0,1,0,0,0,0
11.092701700,1,0,1,0,0,0,1
11.092704200,1,0,1,0,0,1,1
11.094729900,1,0,1,0,0,0,1
11.094932600,1,0,1,0,0,0,0
11.095479700,0,0,1,0,0,0,0
11.096689500,0,0,0,0,0,0,0
11.097257600,0,0,0,0,0,0,1
11.097260200,0,0,1,0,0,0,1
11.097262800,0,0,1,0,1,0,1
11.097487800,0,0,1,0,0,0,1
11.097490400,0,0,1,0,1,0,1
11.214141000,0,0,1,0,0,0,1
11.214143600,0,0,1,0,1,0,1
11.214146900,0,0,1,0,0,0,1
11.214149500,0,0,1,0,1,0,1
11.214186700,0,0,1,0,0,0,1
11.214189300,0,0,1,0,1,0,1
11.214603700,0,0,1,0,0,0,1
11.214861400,0,0,1,0,0,0,0
11.214968300,1,0,1,0,0,0,0
11.376084500,1,0,1,0,0,0,1
11.376127900,1,0,1,1,0,0,1
11.397079500,1,0,1,0,0,0,1
11.397082000,1,0,1,1,0,0,1
11.397213400,1,0,1,0,0,0,1
11.397215900,1,0,1,1,0,0,1
11.418104500,1,0,1,0,0,0,1
11.418107100,1,0,1,0,0,0,0
11.418309500,1,0,1,0,0,0,1
11.418312000,1,0,1,0,0,1,1
11.420337700,1,0,1,0,0,0,1
11.420540400,1,0,1,0,0,0,0
11.421087500,0,0,1,0,0,0,0
11.422297300,0,0,0,0,0,0,0
11.422865400,0,0,0,0,0,0,1
11.422868000,0,0,1,0,0,0,1
11.422870600,0,0,1,0,1,0,1
11.423095600,0,0,1,0,0,0,1
11.423098200,0,0,1,0,1,0,1
11.539744900,0,0,1,0,0,0,1
11.539747500,0,0,1,0,1,0,1
11.539750800,0,0,1,0,0,0,1
11.539753400,0,0,1,0,1,0,1
11.539790600,0,0,1,0,0,0,1
11.539793200,0,0,1,0,1,0,1
11.540207700,0,0,1,0,0,0,1
11.540465300,0,0,1,0,0,0,0
11.540572200,1,0,1,0,0,0,0
11.701705200,1,0,1,0,0,0,1
11.701748600,1,0,1,1,0,0,1
11.722698500,1,0,1,0,0,0,1
11.722701100,1,0,1,1,0,0,1
11.722832500,1,0,1,0,0,0,1
11.722835000,1,0,1,1,0,0,1
11.743722000,1,0,1,0,0,0,1
11.743724600,1,0,1,0,0,0,0
11.743927000,1,0,1,0,0,0,1
11.743929500,1,0,1,0,0,1,1
11.745955200,1,0,1,0,0,0,1
11.746157900,1,0,1,0,0,0,0
11.746705000,0,0,1,0,0,0,0
11.747914800,0,0,0,0,0,0,0
11.748483200,0,0,0,0,0,0,1
11.748485700,0,0,1,0,0,0,1
11.748488400,0,0,1,0,1,0,1
11.748713400,0,0,1,0,0,0,1
11.748716000,0,0,1,0,1,0,1
11.865367100,0,0,1,0,0,0,1
11.865369700,0,0,1,0,1,0,1
11.865373000,0,0,1,0,0,0,1
11.865375600,0,0,1,0,1,0,1
11.865412800,0,0,1,0,0,0,1
11.865415400,0,0,1,0,1,0,1
11.865829900,0,0,1,0,0,0,1
11.866087500,0,0,1,0,0,0,0
11.866194400,1,0,1,0,0,0,0
18.794449100,1,0,0,0,0,0,0
18.795058500,1,0,0,0,0,0,1
18.795061100,1,0,1,0,0,0,1
18.795063700,1,0,1,0,1,0,1
18.795288700,1,0,1,0,0,0,1
18.795291300,1,0,1,0,1,0,1
18.911945300,1,0,1,0,0,0,1
18.911947900,1,0,1,0,1,0,1
18.911951200,1,0,1,0,0,0,1
18.911953800,1,0,1,0,1,0,1
18.911991000,1,0,1,0,0,0,1
18.911993600,1,0,1,0,1,0,1
18.912408000,1,0,1,0,0,0,1
18.912686300,1,0,1,0,0,0,0
19.074004500,1,0,1,0,0,0,1
19.074048000,1,0,1,1,0,0,1
19.094999000,1,0,1,0,0,0,1
19.095001500,1,0,1,1,0,0,1
19.095132900,1,0,1,0,0,0,1
19.095135500,1,0,1,1,0,0,1
19.116023500,1,0,1,0,0,0,1
19.116026200,1,0,1,0,0,0,0
19.116249200,1,0,1,0,0,0,1
19.116251700,1,0,1,0,0,1,1
19.118277400,1,0,1,0,0,0,1
19.118500600,1,0,1,0,0,0,0
19.119047800,0,0,1,0,0,0,0
19.120278200,0,0,0,0,0,0,0
19.120887600,0,0,0,0,0,0,1
19.120890100,0,0,1,0,0,0,1
19.120892700,0,0,1,0,1,0,1
19.121117700,0,0,1,0,0,0,1
19.121120400,0,0,1,0,1,0,1
19.237780100,0,0,1,0,0,0,1
19.237782700,0,0,1,0,1,0,1
19.237786000,0,0,1,0,0,0,1
19.237788600,0,0,1,0,1,0,1
19.237825800,0,0,1,0,0,0,1
19.237828400,0,0,1,0,1,0,1
19.238242800,0,0,1,0,0,0,1
19.238521100,0,0,1,0,0,0,0
19.238628000,1,0,1,0,0,0,0
19.399821000,1,0,1,0,0,0,1
19.399864400,1,0,1,1,0,0,1
19.420815800,1,0,1,0,0,0,1
19.420818300,1,0,1,1,0,0,1
19.420949700,1,0,1,0,0,0,1
19.420952300,1,0,1,1,0,0,1
19.441840700,1,0,1,0,0,0,1
19.441843300,1,0,1,0,0,0,0
19.442066400,1,0,1,0,0,0,1
19.442068900,1,0,1,0,0,1,1
19.444094600,1,0,1,0,0,0,1
19.444317800,1,0,1,0,0,0,0
19.444865000,0,0,1,0,0,0,0
19.446095400,0,0,0,0,0,0,0
19.446704700,0,0,0,0,0,0,1
19.446707300,0,0,1,0,0,0,1
19.446709900,0,0,1,0,1,0,1
19.446934900,0,0,1,0,0,0,1
19.446937500,0,0,1,0,1,0,1
19.563592700,0,0,1,0,0,0,1
19.563595300,0,0,1,0,1,0,1
19.563598600,0,0,1,0,0,0,1
19.563601200,0,0,1,0,1,0,1
19.563638400,0,0,1,0,0,0,1
19.563641000,0,0,1,0,1,0,1
19.564055500,0,0,1,0,0,0,1
19.564333800,0,0,1,0,0,0,0
19.564440700,1,0,1,0,0,0,0
19.725644800,1,0,1,0,0,0,1
19.725688200,1,0,1,1,0,0,1
19.746642200,1,0,1,0,0,0,1
19.746644700,1,0,1,1,0,0,1
19.746776100,1,0,1,0,0,0,1
19.746778600,1,0,1,1,0,0,1
19.767669600,1,0,1,0,0,0,1
19.767672300,1,0,1,0,0,0,0
19.767895300,1,0,1,0,0,0,1
19.767897800,1,0,1,0,0,1,1
19.769923500,1,0,1,0,0,0,1
19.770146800,1,0,1,0,0,0,0
19.770693900,0,0,1,0,0,0,0
19.771925000,0,0,0,0,0,0,0
19.772534400,0,0,0,0,0,0,1
19.772536900,0,0,1,0,0,0,1
19.772539500,0,0,1,0,1,0,1
19.772764500,0,0,1,0,0,0,1
19.772767200,0,0,1,0,1,0,1
19.889419100,0,0,1,0,0,0,1
19.889421700,0,0,1,0,1,0,1
19.889425000,0,0,1,0,0,0,1
19.889427600,0,0,1,0,1,0,1
19.889464800,0,0,1,0,0,0,1
19.889467400,0,0,1,0,1,0,1
19.889881900,0,0,1,0,0,0,1
19.890160200,0,0,1,0,0,0,0
19.890267100,1,0,1,0,0,0,0
20.051476800,1,0,1,0,0,0,1
20.051520200,1,0,1,1,0,0,1
20.072472900,1,0,1,0,0,0,1
20.072475400,1,0,1,1,0,0,1
20.072606800,1,0,1,0,0,0,1
20.072609300,1,0,1,1,0,0,1
20.093499000,1,0,1,0,0,0,1
20.093501600,1,0,1,0,0,0,0
20.093724700,1,0,1,0,0,0,1
20.093727200,1,0,1,0,0,1,1
20.095752900,1,0,1,0,0,0,1
20.095976100,1,0,1,0,0,0,0
20.096523300,0,0,1,0,0,0,0
20.097753700,0,0,0,0,0,0,0
20.098363000,0,0,0,0,0,0,1
20.098365600,0,0,1,0,0,0,1
20.098368200,0,0,1,0,1,0,1
20.098593200,0,0,1,0,0,0,1
20.098595800,0,0,1,0,1,0,1
20.215253100,0,0,1,0,0,0,1
20.215255700,0,0,1,0,1,0,1
20.215259000,0,0,1,0,0,0,1
20.215261600,0,0,1,0,1,0,1
20.215298800,0,0,1,0,0,0,1
20.215301400,0,0,1,0,1,0,1
20.215715900,0,0,1,0,0,0,1
20.215994200,0,0,1,0,0,0,0
20.216101100,1,0,1,0,0,0,0
20.377296700,1,0,1,0,0,0,1
20.377340100,1,0,1,1,0,0,1
20.398290200,1,0,1,0,0,0,1
20.398292700,1,0,1,1,0,0,1
20.398424100,1,0,1,0,0,0,1
20.398426700,1,0,1,1,0,0,1
20.419313800,1,0,1,0,0,0,1
20.419316400,1,0,1,0,0,0,0
20.419539500,1,0,1,0,0,0,1
20.419542000,1,0,1,0,0,1,1
20.421567700,1,0,1,0,0,0,1
20.421790900,1,0,1,0,0,0,0
20.422338100,0,0,1,0,0,0,0
20.423568500,0,0,0,0,0,0,0
20.424177800,0,0,0,0,0,0,1
20.424180400,0,0,1,0,0,0,1
20.424183000,0,0,1,0,1,0,1
20.424408000,0,0,1,0,0,0,1
20.424410600,0,0,1,0,1,0,1
20.541067400,0,0,1,0,0,0,1
20.541070000,0,0,1,0,1,0,1
20.541073300,0,0,1,0,0,0,1
20.541075900,0,0,1,0,1,0,1
20.541113100,0,0,1,0,0,0,1
20.541115700,0,0,1,0,1,0,1
20.541530100,0,0,1,0,0,0,1
20.541808400,0,0,1,0,0,0,0
20.541915300,1,0,1,0,0,0,0
20.703111500,1,0,1,0,0,0,1
20.703154900,1,0,1,1,0,0,1
20.724105800,1,0,1,0,0,0,1
20.724108300,1,0,1,1,0,0,1
20.724239800,1,0,1,0,0,0,1
20.724242300,1,0,1,1,0,0,1
20.745130200,1,0,1,0,0,0,1
20.745132800,1,0,1,0,0,0,0
20.745355900,1,0,1,0,0,0,1
20.745358400,1,0,1,0,0,1,1
20.747384100,1,0,1,0,0,0,1
20.747607400,1,0,1,0,0,0,0
20.748154500,0,0,1,0,0,0,0
20.749384900,0,0,0,0,0,0,0
20.749994300,0,0,0,0,0,0,1
20.749996800,0,0,1,0,0,0,1
20.749999400,0,0,1,0,1,0,1
20.750224500,0,0,1,0,0,0,1
20.750227100,0,0,1,0,1,0,1
20.866886800,0,0,1,0,0,0,1
20.866889400,0,0,1,0,1,0,1
20.866892700,0,0,1,0,0,0,1
20.866895300,0,0,1,0,1,0,1
20.866932500,0,0,1,0,0,0,1
20.866935100,0,0,1,0,1,0,1
20.867349500,0,0,1,0,0,0,1
20.867627800,0,0,1,0,0,0,0
20.867734700,1,0,1,0,0,0,0
27.796004200,1,0,0,0,0,0,0
27.796613600,1,0,0,0,0,0,1
27.796616200,1,0,1,0,0,0,1
27.796618800,1,0,1,0,1,0,1
27.796843800,1,0,1,0,0,0,1
27.796846400,1,0,1,0,1,0,1
27.913496700,1,0,1,0,0,0,1
27.913499300,1,0,1,0,1,0,1
27.913502600,1,0,1,0,0,0,1
27.913505200,1,0,1,0,1,0,1
27.913542400,1,0,1,0,0,0,1
27.913545000,1,0,1,0,1,0,1
27.913959500,1,0,1,0,0,0,1
27.914237700,1,0,1,0,0,0,0
28.075547300,1,0,1,0,0,0,1
28.075590700,1,0,1,1,0,0,1
28.096541400,1,0,1,0,0,0,1
28.096543900,1,0,1,1,0,0,1
28.096675300,1,0,1,0,0,0,1
28.096677900,1,0,1,1,0,0,1
28.117565500,1,0,1,0,0,0,1
28.117568200,1,0,1,0,0,0,0
28.117791200,1,0,1,0,0,0,1
28.117793700,1,0,1,0,0,1,1
28.119819400,1,0,1,0,0,0,1
28.120042700,1,0,1,0,0,0,0
28.120589800,0,0,1,0,0,0,0
28.121820200,0,0,0,0,0,0,0
28.122429600,0,0,0,0,0,0,1
28.122432200,0,0,1,0,0,0,1
28.122434800,0,0,1,0,1,0,1
28.122659800,0,0,1,0,0,0,1
28.122662400,0,0,1,0,1,0,1
28.239316000,0,0,1,0,0,0,1
28.239318600,0,0,1,0,1,0,1
28.239321900,0,0,1,0,0,0,1
28.239324500,0,0,1,0,1,0,1
28.239361700,0,0,1,0,0,0,1
28.239364300,0,0,1,0,1,0,1
28.239778700,0,0,1,0,0,0,1
28.240057000,0,0,1,0,0,0,0
28.240163900,1,0,1,0,0,0,0
28.961967000,1,0,1,0,0,0,1
28.962017500,1,0,1,1,0,0,1
28.962894600,1,0,1,1,1,0,1
28.963119600,1,0,1,1,0,0,1
28.963122300,1,0,1,1,1,0,1
29.079776600,1,0,1,1,0,0,1
29.079779300,1,0,1,1,1,0,1
29.079782500,1,0,1,1,0,0,1
29.079785200,1,0,1,1,1,0,1
29.079822300,1,0,1,1,0,0,1
29.079825000,1,0,1,1,1,0,1
29.080239400,1,0,1,1,0,0,1
29.080517700,1,0,1,1,0,0,0
36.009072400,1,0,0,1,0,0,0
36.009681700,1,0,0,1,0,0,1
36.009684300,1,0,1,1,0,0,1
36.009686900,1,0,1,1,1,0,1
36.009911900,1,0,1,1,0,0,1
36.009914500,1,0,1,1,1,0,1
36.126572000,1,0,1,1,0,0,1
36.126574600,1,0,1,1,1,0,1
36.126577900,1,0,1,1,0,0,1
36.126580500,1,0,1,1,1,0,1
36.126617700,1,0,1,1,0,0,1
36.126620300,1,0,1,1,1,0,1
36.127034700,1,0,1,1,0,0,1
36.127313000,1,0,1,1,0,0,0
43.055955300,1,0,0,1,0,0,0
43.056564700,1,0,0,1,0,0,1
43.056567200,1,0,1,1,0,0,1
43.056569800,1,0,1,1,1,0,1
43.056794800,1,0,1,1,0,0,1
43.056797500,1,0,1,1,1,0,1
43.173444800,1,0,1,1,0,0,1
43.173447400,1,0,1,1,1,0,1
43.173450700,1,0,1,1,0,0,1
43.173453300,1,0,1,1,1,0,1
43.173490500,1,0,1,1,0,0,1
43.173493100,1,0,1,1,1,0,1
43.173907600,1,0,1,1,0,0,1
43.174185800,1,0,1,1,0,0,0
43.335468800,1,0,1,1,0,0,1
43.356462100,1,0,1,0,0,0,1
43.356464600,1,0,1,1,0,0,1
43.356596100,1,0,1,0,0,0,1
43.356598600,1,0,1,1,0,0,1
43.377485500,1,0,1,0,0,0,1
43.377488200,1,0,1,0,0,0,0
43.377711200,1,0,1,0,0,0,1
43.377713700,1,0,1,0,0,1,1
43.379739400,1,0,1,0,0,0,1
43.379962700,1,0,1,0,0,0,0
43.380509800,0,0,1,0,0,0,0
43.381740600,0,0,0,0,0,0,0
43.382350400,0,0,0,0,0,0,1
43.382352900,0,0,1,0,0,0,1
43.382355500,0,0,1,0,1,0,1
43.382580500,0,0,1,0,0,0,1
43.382583200,0,0,1,0,1,0,1
43.499240800,0,0,1,0,0,0,1
43.499243400,0,0,1,0,1,0,1
43.499246700,0,0,1,0,0,0,1
43.499249300,0,0,1,0,1,0,1
43.499286500,0,0,1,0,0,0,1
43.499289100,0,0,1,0,1,0,1
43.499703600,0,0,1,0,0,0,1
43.499981900,0,0,1,0,0,0,0
43.500088800,1,0,1,0,0,0,0
50.428615800,1,0,0,0,0,0,0
50.429225200,1,0,0,0,0,0,1
50.429227800,1,0,1,0,0,0,1
50.429230400,1,0,1,0,1,0,1
50.429455400,1,0,1,0,0,0,1
50.429458000,1,0,1,0,1,0,1
50.546115600,1,0,1,0,0,0,1
50.546118200,1,0,1,0,1,0,1
50.546121500,1,0,1,0,0,0,1
50.546124100,1,0,1,0,1,0,1
50.546161300,1,0,1,0,0,0,1
50.546163900,1,0,1,0,1,0,1
50.546578400,1,0,1,0,0,0,1
50.546856700,1,0,1,0,0,0,0
57.475705500,1,0,0,0,0,0,0
57.476314900,1,0,0,0,0,0,1
57.476317400,1,0,1,0,0,0,1
57.476320000,1,0,1,0,1,0,1
57.476545000,1,0,1,0,0,0,1
57.476547700,1,0,1,0,1,0,1
57.593196000,1,0,1,0,0,0,1
57.593198600,1,0,1,0,1,0,1
57.593201900,1,0,1,0,0,0,1
57.593204500,1,0,1,0,1,0,1
57.593241700,1,0,1,0,0,0,1
57.593244300,1,0,1,0,1,0,1
57.593658800,1,0,1,0,0,0,1
57.593937100,1,0,1,0,0,0,0
57.755225200,1,0,1,0,0,0,1
57.755268600,1,0,1,1,0,0,1
57.776220400,1,0,1,0,0,0,1
57.776223000,1,0,1,1,0,0,1
57.776354400,1,0,1,0,0,0,1
57.776356900,1,0,1,1,0,0,1
57.797245700,1,0,1,0,0,0,1
57.797248400,1,0,1,0,0,0,0
57.797471400,1,0,1,0,0,0,1
57.797473900,1,0,1,0,0,1,1
57.799499600,1,0,1,0,0,0,1
57.799722900,1,0,1,0,0,0,0
57.800270000,0,0,1,0,0,0,0
57.801500400,0,0,0,0,0,0,0
57.802109800,0,0,0,0,0,0,1
57.802112400,0,0,1,0,0,0,1
57.802115000,0,0,1,0,1,0,1
57.802340000,0,0,1,0,0,0,1
57.802342600,0,0,1,0,1,0,1
57.918995100,0,0,1,0,0,0,1
57.918997700,0,0,1,0,1,0,1
57.919001000,0,0,1,0,0,0,1
57.919003600,0,0,1,0,1,0,1
57.919040800,0,0,1,0,0,0,1
57.919043400,0,0,1,0,1,0,1
57.919457900,0,0,1,0,0,0,1
57.919736200,0,0,1,0,0,0,0
57.919843100,1,0,1,0,0,0,0
58.081058000,1,0,1,0,0,0,1
58.081101400,1,0,1,1,0,0,1
58.102051500,1,0,1,0,0,0,1
58.102054000,1,0,1,1,0,0,1
58.102185400,1,0,1,0,0,0,1
58.102187900,1,0,1,1,0,0,1
58.123075000,1,0,1,0,0,0,1
58.123077700,1,0,1,0,0,0,0
58.123300700,1,0,1,0,0,0,1
58.123303200,1,0,1,0,0,1,1
58.125328900,1,0,1,0,0,0,1
58.125552200,1,0,1,0,0,0,0
58.126099400,0,0,1,0,0,0,0
58.127329700,0,0,0,0,0,0,0
58.127939100,0,0,0,0,0,0,1
58.127941700,0,0,1,0,0,0,1
58.127944300,0,0,1,0,1,0,1
58.128169300,0,0,1,0,0,0,1
58.128171900,0,0,1,0,1,0,1
58.244827000,0,0,1,0,0,0,1
58.244829600,0,0,1,0,1,0,1
58.244832900,0,0,1,0,0,0,1
58.244835500,0,0,1,0,1,0,1
58.244872700,0,0,1,0,0,0,1
58.244875300,0,0,1,0,1,0,1
58.245289700,0,0,1,0,0,0,1
58.245568000,0,0,1,0,0,0,0
58.245674900,1,0,1,0,0,0,0
65.174412100,1,0,0,0,0,0,0
65.175021400,1,0,0,0,0,0,1
65.175024000,1,0,1,0,0,0,1
65.175026600,1,0,1,0,1,0,1
